Circuit: * C:\Users\shann\Dropbox\moog\twangilizer\docs\spice\vactrol_test_rig.asc

Direct Newton iteration for .op point succeeded.
Semiconductor Device Operating Points:
                        --- Diodes ---
Name:    d:u3:4      d:u3:2      d:u3:1      d:u3:6      d:u3:5
Model:  u3:dbias    u3:dbias      u3:ds       u3:yd       u3:yu
Id:      8.06e-08    8.06e-08   -4.63e-12   -3.70e-14    3.70e-14
Vd:      1.42e+01    1.42e+01   -4.63e-03   -3.70e-02    3.70e-02
Req:     1.00e-06    1.00e-06    1.00e-09    1.00e-12    1.00e-12
CAP:     0.00e+00    0.00e+00    0.00e+00    0.00e+00    0.00e+00

Name:    d:u1:4      d:u1:2      d:u1:1      d:u1:6      d:u1:5
Model:  u1:dbias    u1:dbias      u1:ds       u1:yd       u1:yu
Id:      8.06e-08    8.06e-08    1.03e-07    1.99e-21   -1.99e-21
Vd:      1.42e+01    1.52e+01    2.00e-01    1.98e-09   -1.98e-09
Req:     1.00e-06    1.00e-06    1.00e-02    1.00e-12    1.00e-12
CAP:     0.00e+00    0.00e+00    0.00e+00    0.00e+00    0.00e+00

Name:      d4          d3          d2          d1        d:u2:4
Model:      d           d           d           d       u2:dbias
Id:      2.50e-04    1.04e-03   -1.12e-11    2.50e-04    8.06e-08
Vd:      6.19e-01    6.56e-01   -1.12e+01    6.19e-01    1.70e+01
Req:     1.03e+02    2.48e+01    1.00e+12    1.03e+02    1.00e-06
CAP:     0.00e+00    0.00e+00    0.00e+00    0.00e+00    0.00e+00

Name:    d:u2:2      d:u2:1      d:u2:6      d:u2:5
Model:  u2:dbias      u2:ds       u2:yd       u2:yu
Id:      8.06e-08   -5.20e-14   -8.88e-15    8.88e-15
Vd:      1.70e+01   -5.20e-05   -8.87e-03    8.87e-03
Req:     1.00e-06    1.00e-09    1.00e-12    1.00e-12
CAP:     0.00e+00    0.00e+00    0.00e+00    0.00e+00

                        --- VDMOSFET Transistors ---
Name:        m:u3:2      m:u3:1      m:u1:2      m:u1:1      m:u2:2
Model:        u3:p        u3:n        u1:p        u1:n        u2:p
Id:         -5.41e-04    1.58e-03   -9.94e-04    9.94e-04   -8.73e-04
Vgs:         3.70e-02    3.70e-02   -1.98e-09   -1.98e-09    8.87e-03
Vds:        -2.31e+01    9.08e-01   -8.13e-01    2.32e+01   -1.82e+01
Vth:         1.41e-01   -1.41e-01    1.41e-01   -1.41e-01    1.41e-01
Gm:          1.04e-02    1.78e-02    1.41e-02    1.41e-02    1.32e-02
Gds:         0.00e+00    0.00e+00    0.00e+00    0.00e+00    0.00e+00
Cgs:         0.00e+00    0.00e+00    0.00e+00    0.00e+00    0.00e+00
Cgd:         0.00e+00    0.00e+00    0.00e+00    0.00e+00    0.00e+00
Cbody:       0.00e+00    0.00e+00    0.00e+00    0.00e+00    0.00e+00

Name:        m:u2:1
Model:        u2:n
Id:          1.12e-03
Vgs:         8.87e-03
Vds:         5.76e+00
Vth:        -1.41e-01
Gm:          1.50e-02
Gds:         0.00e+00
Cgs:         0.00e+00
Cgd:         0.00e+00
Cbody:       0.00e+00



Date: Sat Mar 02 22:27:35 2024
Total elapsed time: 0.157 seconds.

tnom = 27
temp = 27
method = trap
totiter = 37
traniter = 0
tranpoints = 0
accept = 0
rejected = 0
matrix size = 31
fillins = 9
solver = Normal

